<Qucs Dataset 0.0.18>
<indep ArduinoP10 51>
  +0.00000000000e+00
  +1.00000000000e-01
  +2.00000000000e-01
  +3.00000000000e-01
  +4.00000000000e-01
  +5.00000000000e-01
  +6.00000000000e-01
  +7.00000000000e-01
  +8.00000000000e-01
  +9.00000000000e-01
  +1.00000000000e+00
  +1.10000000000e+00
  +1.20000000000e+00
  +1.30000000000e+00
  +1.40000000000e+00
  +1.50000000000e+00
  +1.60000000000e+00
  +1.70000000000e+00
  +1.80000000000e+00
  +1.90000000000e+00
  +2.00000000000e+00
  +2.10000000000e+00
  +2.20000000000e+00
  +2.30000000000e+00
  +2.40000000000e+00
  +2.50000000000e+00
  +2.60000000000e+00
  +2.70000000000e+00
  +2.80000000000e+00
  +2.90000000000e+00
  +3.00000000000e+00
  +3.10000000000e+00
  +3.20000000000e+00
  +3.30000000000e+00
  +3.40000000000e+00
  +3.50000000000e+00
  +3.60000000000e+00
  +3.70000000000e+00
  +3.80000000000e+00
  +3.90000000000e+00
  +4.00000000000e+00
  +4.10000000000e+00
  +4.20000000000e+00
  +4.30000000000e+00
  +4.40000000000e+00
  +4.50000000000e+00
  +4.60000000000e+00
  +4.70000000000e+00
  +4.80000000000e+00
  +4.90000000000e+00
  +5.00000000000e+00
</indep>
<dep V1.I ArduinoP10>
  -1.33870629701e-02
  -1.33870629701e-02
  -1.33870629701e-02
  -1.33870629701e-02
  -1.33870629701e-02
  -1.33870629701e-02
  -1.33870629701e-02
  -1.33870629701e-02
  -1.33870629701e-02
  -1.33870629701e-02
  -1.33870629701e-02
  -1.33870629701e-02
  -1.33870629701e-02
  -1.33870629701e-02
  -1.33870629701e-02
  -1.33870629701e-02
  -1.33870629701e-02
  -1.33870629701e-02
  -1.33870629701e-02
  -1.33870629701e-02
  -1.33870629701e-02
  -1.33870629701e-02
  -1.33870629701e-02
  -1.33870629701e-02
  -1.33870629701e-02
  -1.33870629701e-02
  -1.33870629701e-02
  -1.33870629701e-02
  -1.33870629701e-02
  -1.33870629701e-02
  -1.33870629701e-02
  -1.33870629701e-02
  -1.33870629701e-02
  -1.33870629701e-02
  -1.33870629701e-02
  -1.33870629701e-02
  -1.33870629701e-02
  -1.33870629701e-02
  -1.33870629701e-02
  -1.33870629701e-02
  -1.33870629701e-02
  -1.33870629701e-02
  -1.33870629701e-02
  -1.33870629701e-02
  -1.33870629701e-02
  -1.33870629701e-02
  -1.33870629701e-02
  -1.33870629701e-02
  -1.33870629701e-02
  -1.33870629701e-02
  -1.33870629701e-02
</dep>
<dep ArduinoP10.I ArduinoP10>
  +0.00000000000e+00
  +0.00000000000e+00
  +0.00000000000e+00
  +0.00000000000e+00
  +0.00000000000e+00
  +0.00000000000e+00
  +0.00000000000e+00
  +0.00000000000e+00
  +0.00000000000e+00
  +0.00000000000e+00
  +0.00000000000e+00
  +0.00000000000e+00
  +0.00000000000e+00
  +0.00000000000e+00
  +0.00000000000e+00
  +0.00000000000e+00
  +0.00000000000e+00
  +0.00000000000e+00
  +0.00000000000e+00
  +0.00000000000e+00
  +0.00000000000e+00
  +0.00000000000e+00
  +0.00000000000e+00
  +0.00000000000e+00
  +0.00000000000e+00
  +0.00000000000e+00
  +0.00000000000e+00
  +0.00000000000e+00
  +0.00000000000e+00
  +0.00000000000e+00
  +0.00000000000e+00
  +0.00000000000e+00
  +0.00000000000e+00
  +0.00000000000e+00
  +0.00000000000e+00
  +0.00000000000e+00
  +0.00000000000e+00
  +0.00000000000e+00
  +0.00000000000e+00
  +0.00000000000e+00
  +0.00000000000e+00
  +0.00000000000e+00
  +0.00000000000e+00
  +0.00000000000e+00
  +0.00000000000e+00
  +0.00000000000e+00
  +0.00000000000e+00
  +0.00000000000e+00
  +0.00000000000e+00
  +0.00000000000e+00
  +0.00000000000e+00
</dep>
<dep _net0.V ArduinoP10>
  +5.00000000000e+00
  +5.00000000000e+00
  +5.00000000000e+00
  +5.00000000000e+00
  +5.00000000000e+00
  +5.00000000000e+00
  +5.00000000000e+00
  +5.00000000000e+00
  +5.00000000000e+00
  +5.00000000000e+00
  +5.00000000000e+00
  +5.00000000000e+00
  +5.00000000000e+00
  +5.00000000000e+00
  +5.00000000000e+00
  +5.00000000000e+00
  +5.00000000000e+00
  +5.00000000000e+00
  +5.00000000000e+00
  +5.00000000000e+00
  +5.00000000000e+00
  +5.00000000000e+00
  +5.00000000000e+00
  +5.00000000000e+00
  +5.00000000000e+00
  +5.00000000000e+00
  +5.00000000000e+00
  +5.00000000000e+00
  +5.00000000000e+00
  +5.00000000000e+00
  +5.00000000000e+00
  +5.00000000000e+00
  +5.00000000000e+00
  +5.00000000000e+00
  +5.00000000000e+00
  +5.00000000000e+00
  +5.00000000000e+00
  +5.00000000000e+00
  +5.00000000000e+00
  +5.00000000000e+00
  +5.00000000000e+00
  +5.00000000000e+00
  +5.00000000000e+00
  +5.00000000000e+00
  +5.00000000000e+00
  +5.00000000000e+00
  +5.00000000000e+00
  +5.00000000000e+00
  +5.00000000000e+00
  +5.00000000000e+00
  +5.00000000000e+00
</dep>
<dep DiodeInput.V ArduinoP10>
  +7.81385617802e-01
  +7.81385617802e-01
  +7.81385617802e-01
  +7.81385617802e-01
  +7.81385617802e-01
  +7.81385617802e-01
  +7.81385617802e-01
  +7.81385617802e-01
  +7.81385617802e-01
  +7.81385617802e-01
  +7.81385617802e-01
  +7.81385617802e-01
  +7.81385617802e-01
  +7.81385617802e-01
  +7.81385617802e-01
  +7.81385617802e-01
  +7.81385617802e-01
  +7.81385617802e-01
  +7.81385617802e-01
  +7.81385617802e-01
  +7.81385617802e-01
  +7.81385617802e-01
  +7.81385617802e-01
  +7.81385617802e-01
  +7.81385617802e-01
  +7.81385617802e-01
  +7.81385617802e-01
  +7.81385617802e-01
  +7.81385617802e-01
  +7.81385617802e-01
  +7.81385617802e-01
  +7.81385617802e-01
  +7.81385617802e-01
  +7.81385617802e-01
  +7.81385617802e-01
  +7.81385617802e-01
  +7.81385617802e-01
  +7.81385617802e-01
  +7.81385617802e-01
  +7.81385617802e-01
  +7.81385617802e-01
  +7.81385617802e-01
  +7.81385617802e-01
  +7.81385617802e-01
  +7.81385617802e-01
  +7.81385617802e-01
  +7.81385617802e-01
  +7.81385617802e-01
  +7.81385617802e-01
  +7.81385617802e-01
  +7.81385617802e-01
</dep>
<dep MOSFETDrain.V ArduinoP10>
  +8.27814088105e+00
  +8.27814088105e+00
  +8.27814088105e+00
  +8.27814088105e+00
  +8.27814088105e+00
  +8.27814088105e+00
  +8.27814088105e+00
  +8.27814088105e+00
  +8.27814088105e+00
  +8.27814088105e+00
  +8.27814088105e+00
  +8.27814088105e+00
  +8.27814088105e+00
  +8.27814088105e+00
  +8.27814088105e+00
  +8.27814088105e+00
  +8.27814088105e+00
  +8.27814088105e+00
  +8.27814088105e+00
  +8.27814088105e+00
  +8.27814088105e+00
  +8.27814088105e+00
  +8.27814088105e+00
  +8.27814088105e+00
  +8.27814088105e+00
  +8.27814088105e+00
  +8.27814088105e+00
  +8.27814088105e+00
  +8.27814088105e+00
  +8.27814088105e+00
  +8.27814088105e+00
  +8.27814088105e+00
  +8.27814088105e+00
  +8.27814088105e+00
  +8.27814088105e+00
  +8.27814088105e+00
  +8.27814088105e+00
  +8.27814088105e+00
  +8.27814088105e+00
  +8.27814088105e+00
  +8.27814088105e+00
  +8.27814088105e+00
  +8.27814088105e+00
  +8.27814088105e+00
  +8.27814088105e+00
  +8.27814088105e+00
  +8.27814088105e+00
  +8.27814088105e+00
  +8.27814088105e+00
  +8.27814088105e+00
  +8.27814088105e+00
</dep>
<dep MOSFESTGate.V ArduinoP10>
  +5.00000000000e+00
  +5.00000000000e+00
  +5.00000000000e+00
  +5.00000000000e+00
  +5.00000000000e+00
  +5.00000000000e+00
  +5.00000000000e+00
  +5.00000000000e+00
  +5.00000000000e+00
  +5.00000000000e+00
  +5.00000000000e+00
  +5.00000000000e+00
  +5.00000000000e+00
  +5.00000000000e+00
  +5.00000000000e+00
  +5.00000000000e+00
  +5.00000000000e+00
  +5.00000000000e+00
  +5.00000000000e+00
  +5.00000000000e+00
  +5.00000000000e+00
  +5.00000000000e+00
  +5.00000000000e+00
  +5.00000000000e+00
  +5.00000000000e+00
  +5.00000000000e+00
  +5.00000000000e+00
  +5.00000000000e+00
  +5.00000000000e+00
  +5.00000000000e+00
  +5.00000000000e+00
  +5.00000000000e+00
  +5.00000000000e+00
  +5.00000000000e+00
  +5.00000000000e+00
  +5.00000000000e+00
  +5.00000000000e+00
  +5.00000000000e+00
  +5.00000000000e+00
  +5.00000000000e+00
  +5.00000000000e+00
  +5.00000000000e+00
  +5.00000000000e+00
  +5.00000000000e+00
  +5.00000000000e+00
  +5.00000000000e+00
  +5.00000000000e+00
  +5.00000000000e+00
  +5.00000000000e+00
  +5.00000000000e+00
  +5.00000000000e+00
</dep>
<dep MOSFETSource.V ArduinoP10>
  +9.00000000000e+00
  +9.00000000000e+00
  +9.00000000000e+00
  +9.00000000000e+00
  +9.00000000000e+00
  +9.00000000000e+00
  +9.00000000000e+00
  +9.00000000000e+00
  +9.00000000000e+00
  +9.00000000000e+00
  +9.00000000000e+00
  +9.00000000000e+00
  +9.00000000000e+00
  +9.00000000000e+00
  +9.00000000000e+00
  +9.00000000000e+00
  +9.00000000000e+00
  +9.00000000000e+00
  +9.00000000000e+00
  +9.00000000000e+00
  +9.00000000000e+00
  +9.00000000000e+00
  +9.00000000000e+00
  +9.00000000000e+00
  +9.00000000000e+00
  +9.00000000000e+00
  +9.00000000000e+00
  +9.00000000000e+00
  +9.00000000000e+00
  +9.00000000000e+00
  +9.00000000000e+00
  +9.00000000000e+00
  +9.00000000000e+00
  +9.00000000000e+00
  +9.00000000000e+00
  +9.00000000000e+00
  +9.00000000000e+00
  +9.00000000000e+00
  +9.00000000000e+00
  +9.00000000000e+00
  +9.00000000000e+00
  +9.00000000000e+00
  +9.00000000000e+00
  +9.00000000000e+00
  +9.00000000000e+00
  +9.00000000000e+00
  +9.00000000000e+00
  +9.00000000000e+00
  +9.00000000000e+00
  +9.00000000000e+00
  +9.00000000000e+00
</dep>
